#  HZ   S   DB   R     50.0 
! Rohde & Schwarz ZVL 
! 
! 
! 
 3.000000000000000E8    -9.905445240138295  -1.265208968507234E2  
 3.060000000000000E8    -1.156365991121065E1  -1.476488457969104E2  
 3.120000000000000E8    -1.354798655115680E1  -1.694586880133155E2  
 3.180000000000000E8    -1.610506348375521E1   1.685512705187586E2  
 3.240000000000000E8    -1.965576031570950E1   1.441707415043287E2  
 3.300000000000000E8    -2.492567004479683E1   1.166157161841048E2  
 3.360000000000000E8    -3.509342145425115E1   6.318109703545037E1  
 3.420000000000000E8    -3.054632349754488E1  -7.328619645795594E1  
 3.480000000000000E8    -2.389147953872590E1  -1.091621833527605E2  
 3.540000000000000E8    -2.048625301370591E1  -1.362871192988132E2  
 3.600000000000000E8    -1.794200545088496E1  -1.630361396745016E2  
 3.660000000000000E8    -1.608494925044101E1   1.721317299621693E2  
 3.720000000000000E8    -1.437150854730649E1   1.479487710535193E2  
 3.780000000000000E8    -1.293788439577117E1   1.248146389855382E2  
 3.840000000000000E8    -1.166635196624995E1   1.029325606507026E2  
 3.900000000000000E8    -1.067071208096890E1   8.151487909544672E1  
 3.960000000000000E8    -9.789268607348467   6.050108779865884E1  
 4.020000000000000E8    -9.055507824772588   3.986647590750397E1  
 4.080000000000000E8    -8.465320228141781   1.964389355605125E1  
 4.140000000000000E8    -7.980142006744766  -5.442596200477972E-1  
 4.200000000000000E8    -7.544810084938591  -2.092387243399223E1  
 4.260000000000000E8    -7.228925717264983  -4.151962895092266E1  
 4.320000000000000E8    -6.934943981867777  -6.204560443637481E1  
 4.380000000000000E8    -6.671106979442038  -8.306135512263528E1  
 4.440000000000000E8    -6.433431612987763  -1.040908990858083E2  
 4.500000000000000E8    -6.181966754407922  -1.249525704870518E2  
 4.560000000000000E8    -5.951866700426110  -1.457574571479041E2  
 4.620000000000000E8    -5.710032988260837  -1.663800338756757E2  
 4.680000000000000E8    -5.516543757595380   1.734363350797115E2  
 4.740000000000000E8    -5.365303809319393   1.533538620770059E2  
 4.800000000000000E8    -5.246224558134350   1.338224472629323E2  
 4.860000000000000E8    -5.164232578512149   1.139881104828418E2  
 4.920000000000000E8    -5.064109472262065   9.406969104490143E1  
 4.980000000000000E8    -4.960824958171457   7.389372930046311E1  
 5.040000000000000E8    -4.940214646089904   5.362394096533444E1  
 5.100000000000000E8    -4.890391135045953   3.301047236204400E1  
 5.160000000000000E8    -4.857600464825262   1.233922458931074E1  
 5.220000000000000E8    -4.775982967726423  -8.364601479446868  
 5.280000000000000E8    -4.705739437742997  -2.891000090974793E1  
 5.340000000000000E8    -4.634234034651490  -4.955229349116448E1  
 5.400000000000000E8    -4.568781763175434  -6.964424726043718E1  
 5.460000000000000E8    -4.513210408245974  -8.942597929921951E1  
 5.520000000000000E8    -4.517264002114211  -1.088650918076527E2  
 5.580000000000000E8    -4.505148858819196  -1.284267354461084E2  
 5.640000000000000E8    -4.556755853025805  -1.480083784199548E2  
 5.700000000000000E8    -4.650129721517430  -1.675043391532364E2  
 5.760000000000000E8    -4.753891051271483   1.727355718411059E2  
 5.820000000000000E8    -4.847780936386098   1.522322079350407E2  
 5.880000000000000E8    -4.973763109483420   1.311831558841219E2  
 5.940000000000000E8    -5.046902064353049   1.099122826973350E2  
 6.000000000000000E8    -5.119067045281119   8.822298055001767E1  
 6.060000000000000E8    -5.166116607779324   6.631136456795700E1  
 6.120000000000000E8    -5.190828035035171   4.470391913140688E1  
 6.180000000000000E8    -5.255366504583574   2.372200454963996E1  
 6.240000000000000E8    -5.258059573191284   2.923485854387514  
 6.300000000000000E8    -5.317898135719160  -1.769187202133616E1  
 6.360000000000000E8    -5.405863711720569  -3.781372317261265E1  
 6.420000000000000E8    -5.584902506122116  -5.749856383656275E1  
 6.480000000000000E8    -5.731232476252153  -7.753591330771513E1  
 6.540000000000000E8    -5.989825090451880  -9.734993539532540E1  
 6.600000000000000E8    -6.276057383306273  -1.179284281896621E2  
 6.660000000000000E8    -6.573641864370153  -1.385647836291687E2  
 6.720000000000000E8    -6.991775386394661  -1.597852164676899E2  
 6.780000000000000E8    -7.408341226422625   1.787400462017570E2  
 6.840000000000000E8    -7.820039588615073   1.574022027180836E2  
 6.900000000000000E8    -8.397508946518858   1.358299556017598E2  
 6.960000000000000E8    -8.909350612147113   1.146865881327363E2  
 7.020000000000000E8    -9.631393697972849   9.399219184017120E1  
 7.080000000000000E8    -1.045854733275808E1   7.387319240609143E1  
 7.140000000000000E8    -1.152512700564371E1   5.461159167811864E1  
 7.200000000000000E8    -1.288052709773117E1   3.565371335827987E1  
 7.260000000000000E8    -1.461979051041301E1   1.766938804242460E1  
 7.320000000000000E8    -1.678633755943720E1   2.173396088540151  
 7.380000000000000E8    -1.960008664170137E1  -8.782977188550685  
 7.440000000000000E8    -2.230236294406193E1  -1.108099572137014E1  
 7.500000000000000E8    -2.388648940496814E1  -2.572693749334981  
 7.560000000000000E8    -2.226952130194833E1   3.808803582128824E-1  
 7.620000000000000E8    -1.978645093187454E1  -7.978333706980786  
 7.680000000000000E8    -1.765271444484944E1  -2.735697026859112E1  
 7.740000000000000E8    -1.588507325320541E1  -4.962056583674138E1  
 7.800000000000000E8    -1.435873217562318E1  -7.325257407589295E1  
 7.860000000000000E8    -1.291102343126828E1  -9.787725439521425E1  
 7.920000000000000E8    -1.177902342575164E1  -1.229550844688670E2  
 7.980000000000000E8    -1.107543469413925E1  -1.471540466568865E2  
 8.040000000000000E8    -1.040942736831873E1  -1.708783339043267E2  
 8.100000000000000E8    -1.012264768970951E1   1.652067053776842E2  
 8.160000000000000E8    -1.014822756735877E1   1.400649324899343E2  
 8.220000000000000E8    -1.050181920968465E1   1.135554730518646E2  
 8.280000000000000E8    -1.157829858651617E1   8.523838479154598E1  
 8.340000000000000E8    -1.356823330963506E1   5.573269677708846E1  
 8.400000000000000E8    -1.676318961197649E1   2.890928574008064E1  
 8.460000000000000E8    -2.010281787695264E1   9.715178955457649  
 8.520000000000000E8    -2.204907931369682E1  -1.757879948856235E1  
 8.580000000000000E8    -2.422720579250462E1  -8.387652558164326E1  
 8.640000000000000E8    -2.343424356517661E1  -1.644195588933088E2  
 8.700000000000000E8    -1.849278388620028E1   1.385957460033755E2  
 8.760000000000000E8    -1.509030973078865E1   9.992099631101554E1  
 8.820000000000000E8    -1.216653691108653E1   6.703092424942395E1  
 8.880000000000000E8    -1.008046695799661E1   3.557658692914887E1  
 8.940000000000000E8    -8.549371912011866   4.285408669591501  
 9.000000000000000E8    -7.847066073219672  -2.387722825546855E1  
 9.060000000000000E8    -7.262271992677198  -4.954372533542893E1  
 9.120000000000000E8    -6.888094529933643  -7.462639133727281E1  
 9.180000000000000E8    -6.619338202938623  -9.915684408755419E1  
 9.240000000000000E8    -6.677194315879945  -1.235814064141898E2  
 9.300000000000000E8    -6.886808479542754  -1.472242667080269E2  
 9.360000000000000E8    -7.033696115615912  -1.693331764004052E2  
 9.420000000000000E8    -7.254910069958145   1.677883977777403E2  
 9.480000000000000E8    -7.438271990532332   1.461752617798387E2  
 9.540000000000000E8    -7.791271704903867   1.246473328243886E2  
 9.600000000000000E8    -8.291265859057406   1.059516680050808E2  
 9.660000000000000E8    -8.695135665631959   9.189284363134948E1  
 9.720000000000000E8    -8.315548214895268   7.937634788350121E1  
 9.780000000000000E8    -7.573213886359042   6.478707227938072E1  
 9.840000000000000E8    -6.758494433273149   4.907531970157675E1  
 9.900000000000000E8    -5.904671940246136   3.196259729886229E1  
 9.960000000000000E8    -5.169420156777088   1.223818391434723E1  
 1.002000000000000E9    -4.578376221019014  -2.795796616573014  
 1.008000000000000E9    -4.195333881918242  -2.868245587043363E1  
 1.014000000000000E9    -3.897305948313551  -4.967293258972286E1  
 1.020000000000000E9    -3.683988124826542  -7.132187614609858E1  
 1.026000000000000E9    -3.505648108989472  -9.299327506309926E1  
 1.032000000000000E9    -3.383181409120100  -1.146535277696338E2  
 1.038000000000000E9    -3.251977177172332  -1.361816723580060E2  
 1.044000000000000E9    -3.129956152918129  -1.576898631340258E2  
 1.050000000000000E9    -3.046048742787395  -1.786285375904069E2  
 1.056000000000000E9    -2.922878064913109   1.606949446204412E2  
 1.062000000000000E9    -2.823561806199218   1.404750162032138E2  
 1.068000000000000E9    -2.728583597993151   1.207070969679484E2  
 1.074000000000000E9    -2.645630665798763   1.012807874722714E2  
 1.080000000000000E9    -2.571855152990947   8.174813938005950E1  
 1.086000000000000E9    -2.467503121214999   6.236227817568526E1  
 1.092000000000000E9    -2.412594660870375   4.270957450841806E1  
 1.098000000000000E9    -2.394676140380474   2.262214030918588E1  
 1.104000000000000E9    -2.352148017902748   2.410901103303494  
 1.110000000000000E9    -2.362950973037008  -1.803228710366731E1  
 1.116000000000000E9    -2.402600646919770  -3.855302600626688E1  
 1.122000000000000E9    -2.430787673932638  -5.891617337501587E1  
 1.128000000000000E9    -2.485232580345812  -7.941433219331967E1  
 1.134000000000000E9    -2.530756006116733  -9.909561602999007E1  
 1.140000000000000E9    -2.543512246699593  -1.185666782260734E2  
 1.146000000000000E9    -2.580308061786239  -1.379424770394159E2  
 1.152000000000000E9    -2.593395299827102  -1.570014275465313E2  
 1.158000000000000E9    -2.546827752013135  -1.763460675710354E2  
 1.164000000000000E9    -2.507908302916738   1.641706713184867E2  
 1.170000000000000E9    -2.502267991834239   1.445520348750099E2  
 1.176000000000000E9    -2.471227113302919   1.244119101393859E2  
 1.182000000000000E9    -2.482419999483246   1.039550819688798E2  
 1.188000000000000E9    -2.511423363912773   8.333682250479880E1  
 1.194000000000000E9    -2.543726071268890   6.249523508204545E1  
 1.200000000000000E9    -2.601459155209001   4.158439555989370E1  
 1.206000000000000E9    -2.661475757487236   2.093288421172084E1  
 1.212000000000000E9    -2.732255006077402   7.235259747989238E-1  
 1.218000000000000E9    -2.793496115263929  -1.926076532253664E1  
 1.224000000000000E9    -2.852997287749140  -3.890980485400235E1  
 1.230000000000000E9    -2.914276506013391  -5.836706139739522E1  
 1.236000000000000E9    -2.931049583445821  -7.741266475467162E1  
 1.242000000000000E9    -2.925275274035752  -9.651580928877218E1  
 1.248000000000000E9    -2.935272964317703  -1.158122418614472E2  
 1.254000000000000E9    -2.943694197072004  -1.354753101292695E2  
 1.260000000000000E9    -2.968696270378255  -1.557406808341973E2  
 1.266000000000000E9    -3.017780679453002  -1.759611152014668E2  
 1.272000000000000E9    -3.083527513080046   1.636267271536983E2  
 1.278000000000000E9    -3.175852261978884   1.429445754226003E2  
 1.284000000000000E9    -3.263878314869868   1.225765577492485E2  
 1.290000000000000E9    -3.387592603553859   1.026153548192324E2  
 1.296000000000000E9    -3.457652378882172   8.274158407876122E1  
 1.302000000000000E9    -3.544647542618520   6.311489953505787E1  
 1.308000000000000E9    -3.576288625177902   4.428206860556094E1  
 1.314000000000000E9    -3.657392339431947   2.513208072220965E1  
 1.320000000000000E9    -3.681274149235476   6.237574912944756  
 1.326000000000000E9    -3.763055177375689  -1.286219304681845E1  
 1.332000000000000E9    -3.874586489167602  -3.238954077852497E1  
 1.338000000000000E9    -4.058136379565346  -5.243916371430118E1  
 1.344000000000000E9    -4.271453957039828  -7.292025460933024E1  
 1.350000000000000E9    -4.534625026574499  -9.375672565417801E1  
 1.356000000000000E9    -4.843815596671589  -1.149710854477605E2  
 1.362000000000000E9    -5.133178190454341  -1.364468160431038E2  
 1.368000000000000E9    -5.445939354594996  -1.577120584022225E2  
 1.374000000000000E9    -5.732638722943685  -1.788668363819851E2  
 1.380000000000000E9    -5.907571716818903   1.604367035996044E2  
 1.386000000000000E9    -6.031879670312732   1.402468540648492E2  
 1.392000000000000E9    -6.210079950953866   1.202842938090089E2  
 1.398000000000000E9    -6.453209787760574   1.006518185576049E2  
 1.404000000000000E9    -6.685225967052299   8.106992561139869E1  
 1.410000000000000E9    -7.006333733082263   6.138939072278453E1  
 1.416000000000000E9    -7.471900452956507   4.156052348584487E1  
 1.422000000000000E9    -8.041604869273449   2.124892122403547E1  
 1.428000000000000E9    -8.711793399591432   8.925562819599369E-1  
 1.434000000000000E9    -9.490250333092723  -1.978887219527580E1  
 1.440000000000000E9    -1.030889318864540E1  -4.100057549823156E1  
 1.446000000000000E9    -1.117698082030024E1  -6.248336204827264E1  
 1.452000000000000E9    -1.209604467896370E1  -8.313099952249078E1  
 1.458000000000000E9    -1.301288783368276E1  -1.031400977125369E2  
 1.464000000000000E9    -1.392455117132032E1  -1.227450692250100E2  
 1.470000000000000E9    -1.500325110566048E1  -1.406531724625195E2  
 1.476000000000000E9    -1.617771172899993E1  -1.557081858979041E2  
 1.482000000000000E9    -1.776447574324130E1  -1.684666475056762E2  
 1.488000000000000E9    -1.921137325697223E1  -1.731852662723499E2  
 1.494000000000000E9    -2.060082936745619E1  -1.739013997927199E2  
 1.500000000000000E9    -2.089069532938719E1  -1.674988262322048E2  
